! Sonnet Data File
! From: em Version : 17.56
! From Project: LER_10_1_0d4_22d5
! Data is De-embedded 
! Data File Written: 09/02/2021 17:40:32
! ->  Created by pysonnet 0.0.1
!< HDATE 09/02/2021 15:37:10
!< MDATE 09/02/2021 15:37:10
[Version] 2.0
# GHZ S RI R 50.00000
[Number of Ports] 2
[Two-Port Data Order] 21_12
[Number of Frequencies] 950
[Network Data]
5.330818384141731 0.0023917109529 0.0196244084319 0.9926689823814 -0.119236793697 0.9926689823815 -0.119236793697 0.0023237749450 0.0196325688017
5.335000000000000 0.0023957371083 0.0196401559241 0.9926573989062 -0.119330516948 0.9926573989062 -0.119330516948 0.0023273044860 0.0196483822702
5.340000000000001 0.0024005613702 0.0196589968138 0.9926435345829 -0.119442594851 0.9926435345829 -0.119442594851 0.0023315261410 0.0196673032454
5.345000000000001 0.0024053968484 0.0196778504917 0.9926296551255 -0.119554686251 0.9926296551255 -0.119554686251 0.0023357492032 0.0196862383446
5.350000000000001 0.0024102437220 0.0196967172986 0.9926157604753 -0.119666791523 0.9926157604753 -0.119666791523 0.0023399736065 0.0197051879410
5.355000000000000 0.0024151021763 0.0197155975863 0.9926018505717 -0.119778911056 0.9926018505717 -0.119778911056 0.0023441992822 0.0197241524205
5.360000000000000 0.0024199724031 0.0197344917189 0.9925879253517 -0.119891045255 0.9925879253517 -0.119891045255 0.0023484261594 0.0197431321821
5.365000000000000 0.0024248546004 0.0197534000729 0.9925739847506 -0.120003194535 0.9925739847506 -0.120003194535 0.0023526541648 0.0197621276385
5.370000000000000 0.0024297489734 0.0197723230378 0.9925600287012 -0.120115359328 0.9925600287012 -0.120115359328 0.0023568832225 0.0197811392170
5.375000000000000 0.0024346557341 0.0197912610168 0.9925460571339 -0.120227540079 0.9925460571339 -0.120227540079 0.0023611132542 0.0198001673593
5.380000000000000 0.0024395751025 0.0198102144273 0.9925320699767 -0.120339737251 0.9925320699767 -0.120339737251 0.0023653441785 0.0198192125233
5.385000000000001 0.0024445073059 0.0198291837016 0.9925180671550 -0.120451951322 0.9925180671550 -0.120451951322 0.0023695759113 0.0198382751828
5.390000000000001 0.0024494525800 0.0198481692874 0.9925040485917 -0.120564182788 0.9925040485917 -0.120564182788 0.0023738083654 0.0198573558288
5.395000000000000 0.0024544111691 0.0198671716488 0.9924900142067 -0.120676432162 0.9924900142067 -0.120676432162 0.0023780414507 0.0198764549699
5.400000000000000 0.0024593833262 0.0198861912666 0.9924759639170 -0.120788699977 0.9924759639170 -0.120788699977 0.0023822750735 0.0198955731335
5.405000000000000 0.0024643693139 0.0199052286397 0.9924618976366 -0.120900986785 0.9924618976366 -0.120900986785 0.0023865091367 0.0199147108664
5.410000000000000 0.0024693694044 0.0199242842852 0.9924478152762 -0.121013293159 0.9924478152762 -0.121013293159 0.0023907435399 0.0199338687357
5.415000000000000 0.0024743838802 0.0199433587398 0.9924337167432 -0.121125619693 0.9924337167432 -0.121125619693 0.0023949781786 0.0199530473300
5.420000000000000 0.0024794130344 0.0199624525607 0.9924196019414 -0.121237967003 0.9924196019414 -0.121237967003 0.0023992129445 0.0199722472601
5.425000000000001 0.0024844571714 0.0199815663262 0.9924054707712 -0.121350335731 0.9924054707712 -0.121350335731 0.0024034477251 0.0199914691601
5.430000000000001 0.0024895166074 0.0200007006371 0.9923913231287 -0.121462726540 0.9923913231287 -0.121462726540 0.0024076824037 0.0200107136889
5.435000000000000 0.0024945916709 0.0200198561177 0.9923771589063 -0.121575140124 0.9923771589063 -0.121575140124 0.0024119168589 0.0200299815309
5.440000000000000 0.0024996827033 0.0200390334166 0.9923629779919 -0.121687577200 0.9923629779919 -0.121687577200 0.0024161509645 0.0200492733976
5.445000000000000 0.0025047900597 0.0200582332087 0.9923487802692 -0.121800038514 0.9923487802692 -0.121800038514 0.0024203845895 0.0200685900288
5.450000000000000 0.0025099141094 0.0200774561956 0.9923345656169 -0.121912524846 0.9923345656169 -0.121912524846 0.0024246175974 0.0200879321942
5.455000000000000 0.0025150552367 0.0200967031077 0.9923203339090 -0.122025037003 0.9923203339090 -0.122025037003 0.0024288498464 0.0201073006945
5.460000000000000 0.0025202138418 0.0201159747053 0.9923060850142 -0.122137575827 0.9923060850142 -0.122137575827 0.0024330811888 0.0201266963635
5.465000000000001 0.0025253903412 0.0201352717802 0.9922918187958 -0.122250142196 0.9922918187958 -0.122250142196 0.0024373114706 0.0201461200695
5.470000000000001 0.0025305851691 0.0201545951572 0.9922775351114 -0.122362737023 0.9922775351114 -0.122362737023 0.0024415405317 0.0201655727173
5.475000000000001 0.0025357987780 0.0201739456964 0.9922632338124 -0.122475361261 0.9922632338124 -0.122475361261 0.0024457682050 0.0201850552498
5.480000000000000 0.0025410316398 0.0201933242944 0.9922489147441 -0.122588015902 0.9922489147441 -0.122588015902 0.0024499943164 0.0202045686504
5.485000000000000 0.0025462842467 0.0202127318866 0.9922345777449 -0.122700701985 0.9922345777449 -0.122700701985 0.0024542186841 0.0202241139451
5.490000000000000 0.0025515571126 0.0202321694494 0.9922202226461 -0.122813420589 0.9922202226461 -0.122813420589 0.0024584411187 0.0202436922046
5.495000000000000 0.0025568507739 0.0202516380024 0.9922058492717 -0.122926172844 0.9922058492717 -0.122926172844 0.0024626614220 0.0202633045471
5.500000000000000 0.0025621657911 0.0202711386107 0.9921914574377 -0.123038959931 0.9921914574377 -0.123038959931 0.0024668793873 0.0202829521407
5.505000000000001 0.0025675027501 0.0202906723874 0.9921770469518 -0.123151783082 0.9921770469518 -0.123151783082 0.0024710947984 0.0203026362064
5.510000000000001 0.0025728622634 0.0203102404967 0.9921626176128 -0.123264643588 0.9921626176128 -0.123264643588 0.0024753074295 0.0203223580210
5.515000000000001 0.0025782449720 0.0203298441566 0.9921481692105 -0.123377542799 0.9921481692105 -0.123377542799 0.0024795170440 0.0203421189202
5.520000000000000 0.0025836515467 0.0203494846420 0.9921337015243 -0.123490482125 0.9921337015243 -0.123490482125 0.0024837233945 0.0203619203026
5.525000000000000 0.0025890826904 0.0203691632882 0.9921192143238 -0.123603463048 0.9921192143238 -0.123603463048 0.0024879262217 0.0203817636326
5.530000000000000 0.0025945391393 0.0203888814944 0.9921047073670 -0.123716487117 0.9921047073670 -0.123716487117 0.0024921252543 0.0204016504449
5.535000000000000 0.0026000216654 0.0204086407278 0.9920901804005 -0.123829555959 0.9920901804005 -0.123829555959 0.0024963202074 0.0204215823488
5.540000000000000 0.0026055310788 0.0204284425275 0.9920756331582 -0.123942671278 0.9920756331582 -0.123942671278 0.0025005107825 0.0204415610325
5.545000000000000 0.0026110682296 0.0204482885089 0.9920610653610 -0.124055834865 0.9920610653610 -0.124055834865 0.0025046966660 0.0204615882678
5.550000000000001 0.0026166340108 0.0204681803690 0.9920464767156 -0.124169048601 0.9920464767156 -0.124169048601 0.0025088775287 0.0204816659162
5.555000000000001 0.0026222293608 0.0204881198910 0.9920318669136 -0.124282314460 0.9920318669136 -0.124282314460 0.0025130530248 0.0205017959336
5.560000000000000 0.0026278552666 0.0205081089503 0.9920172356310 -0.124395634523 0.9920172356310 -0.124395634523 0.0025172227903 0.0205219803772
5.565000000000000 0.0026335127667 0.0205281495201 0.9920025825265 -0.124509010975 0.9920025825265 -0.124509010975 0.0025213864426 0.0205422214115
5.570000000000000 0.0026392029547 0.0205482436784 0.9919879072410 -0.124622446119 0.9919879072410 -0.124622446119 0.0025255435787 0.0205625213158
5.575000000000000 0.0026449269828 0.0205683936146 0.9919732093958 -0.124735942383 0.9919732093958 -0.124735942383 0.0025296937738 0.0205828824917
5.580000000000000 0.0026506860660 0.0205886016372 0.9919584885919 -0.124849502323 0.9919584885919 -0.124849502323 0.0025338365804 0.0206033074718
5.585000000000000 0.0026564814863 0.0206088701822 0.9919437444078 -0.124963128641 0.9919437444078 -0.124963128641 0.0025379715261 0.0206237989280
5.590000000000001 0.0026623145974 0.0206292018216 0.9919289763989 -0.125076824186 0.9919289763989 -0.125076824186 0.0025420981121 0.0206443596820
5.595000000000001 0.0026681868300 0.0206495992734 0.9919141840949 -0.125190591971 0.9919141840949 -0.125190591971 0.0025462158116 0.0206649927153
5.600000000000001 0.0026740996969 0.0206700654121 0.9918993669988 -0.125304435183 0.9918993669988 -0.125304435183 0.0025503240671 0.0206857011813
5.605000000000000 0.0026800547993 0.0206906032798 0.9918845245842 -0.125418357192 0.9918845245842 -0.125418357192 0.0025544222891 0.0207064884173
5.610000000000000 0.0026860538334 0.0207112160991 0.9918696562937 -0.125532361572 0.9918696562937 -0.125532361572 0.0025585098528 0.0207273579585
5.615000000000000 0.0026920985973 0.0207319072859 0.9918547615361 -0.125646452107 0.9918547615361 -0.125646452107 0.0025625860961 0.0207483135525
5.620000000000000 0.0026981909991 0.0207526804652 0.9918398396844 -0.125760632817 0.9918398396844 -0.125760632817 0.0025666503166 0.0207693591759
5.625000000000000 0.0027043330650 0.0207735394863 0.9918248900723 -0.125874907967 0.9918248900723 -0.125874907967 0.0025707017682 0.0207904990519
5.630000000000001 0.0027105269489 0.0207944884411 0.9918099119918 -0.125989282094 0.9918099119918 -0.125989282094 0.0025747396581 0.0208117376696
5.635000000000001 0.0027167749429 0.0208155316828 0.9917949046896 -0.126103760023 0.9917949046895 -0.126103760023 0.0025787631421 0.0208330798042
5.640000000000001 0.0027230793584 0.0208366729642 0.9917798674946 -0.126218346011 0.9917798674946 -0.126218346011 0.0025827711894 0.0208545296586
5.645000000000000 0.0027294426771 0.0208579164013 0.9917647996760 -0.126333044713 0.9917647996760 -0.126333044713 0.0025867627152 0.0208760918263
5.650000000000000 0.0027358676887 0.0208792673606 0.9917497003071 -0.126447862066 0.9917497003071 -0.126447862066 0.0025907367111 0.0208977721871
5.655000000000000 0.0027423573733 0.0209007315687 0.9917345683990 -0.126562804410 0.9917345683990 -0.126562804410 0.0025946920985 0.0209195770156
5.660000000000000 0.0027489149170 0.0209223151439 0.9917194028947 -0.126677878517 0.9917194028947 -0.126677878517 0.0025986277229 0.0209415130162
5.665000000000000 0.0027555437310 0.0209440246314 0.9917042026634 -0.126793091633 0.9917042026634 -0.126793091633 0.0026025423475 0.0209635873615
5.670000000000000 0.0027622474714 0.0209658670410 0.9916889664934 -0.126908451518 0.9916889664934 -0.126908451518 0.0026064346457 0.0209858077344
5.675000000000001 0.0027690300615 0.0209878498902 0.9916736930849 -0.127023966497 0.9916736930849 -0.127023966497 0.0026103031925 0.0210081823746
5.680000000000001 0.0027758957173 0.0210099812514 0.9916583810418 -0.127139645509 0.9916583810418 -0.127139645509 0.0026141464560 0.0210307201311
5.685000000000000 0.0027828489750 0.0210322698049 0.9916430288626 -0.127255498167 0.9916430288626 -0.127255498167 0.0026179627866 0.0210534305197
5.690000000000000 0.0027898947221 0.0210547248977 0.9916276349297 -0.127371534824 0.9916276349297 -0.127371534824 0.0026217504060 0.0210763237882
5.695000000000000 0.0027970382324 0.0210773566095 0.9916121974985 -0.127487766644 0.9916121974985 -0.127487766644 0.0026255073942 0.0210994109885
5.700000000000000 0.0028042852047 0.0211001758268 0.9915967146841 -0.127604205687 0.9915967146841 -0.127604205687 0.0026292316755 0.0211227040579
5.700794099501667 0.0028054460904 0.0211038179938 0.9915942513960 -0.127622718442 0.9915942513960 -0.127622718442 0.0026298200094 0.0211264232460
5.705000000000000 0.0028116418071 0.0211231943258 0.9915811844471 -0.127720864999 0.9915811844471 -0.127720864999 0.0026329210021 0.0211462159103
5.706455434249484 0.0028138047632 0.0211299339594 0.9915766545756 -0.127754866380 0.9915766545756 -0.127754866380 0.0026339880036 0.0211531029915
5.710000000000000 0.0028191147256 0.0211464248663 0.9915656045771 -0.127837758717 0.9915656045771 -0.127837758717 0.0026365729365 0.0211699605390
5.711987046386559 0.0028221184210 0.0211557188105 0.9915593986850 -0.127884281815 0.9915593986850 -0.127884281815 0.0026380132863 0.0211794648377
5.715000000000001 0.0028267112207 0.0211698812970 0.9915499726747 -0.127954902186 0.9915499726747 -0.127954902186 0.0026401848307 0.0211939531328
5.717391908348984 0.0028303912243 0.0211811866510 0.9915424755059 -0.128011034609 0.9915424755059 -0.128011034609 0.0026418977036 0.0212055232045
5.720000000000001 0.0028344391900 0.0211935786755 0.9915342861301 -0.128072312090 0.9915342861301 -0.128072312090 0.0026437538033 0.0212182102072
5.722672924463089 0.0028386273257 0.0212063513943 0.9915258769517 -0.128135193171 0.9915258769517 -0.128135193171 0.0026456430393 0.0212312923286
5.725000000000001 0.0028423072397 0.0212175334038 0.9915185420997 -0.128190006604 0.9915185420997 -0.128190006604 0.0026472767135 0.0212427497531
5.727832932506092 0.0028468308712 0.0212312267721 0.9915095950653 -0.128256824496 0.9915095950653 -0.128256824496 0.0026492510146 0.0212567862730
5.730000000000000 0.0028503247664 0.0212417633825 0.9915027374795 -0.128308005566 0.9915027374795 -0.128308005566 0.0026507501309 0.0212675914071
5.732874705230993 0.0028550060024 0.0212558263435 0.9914936220162 -0.128375994200 0.9914936220162 -0.128375994200 0.0026527232892 0.0212820189358
5.735000000000000 0.0028585020499 0.0212662881876 0.9914868688740 -0.128426330672 0.9914868688740 -0.128426330672 0.0026541703020 0.0212927566442
5.737800951856525 0.0028631568582 0.0212801635039 0.9914779500988 -0.128492766557 0.9914779500988 -0.128492766557 0.0026560614614 0.0213070040596
5.740000000000000 0.0028668503597 0.0212911292716 0.9914709325613 -0.128545005698 0.9914709325613 -0.128545005698 0.0026575331111 0.0213182689996
5.742614319522961 0.0028712875766 0.0213042514933 0.9914625717295 -0.128607204539 0.9914625717295 -0.128607204539 0.0026592670688 0.0213317552401
5.745000000000000 0.0028753820771 0.0213163101953 0.9914549244523 -0.128664056758 0.9914549244523 -0.128664056758 0.0026608340357 0.0213441543227
5.747317394714571 0.0028794022964 0.0213281034049 0.9914474794445 -0.128719369846 0.9914474794445 -0.128719369846 0.0026623415884 0.0213562859346
5.750000000000000 0.0028841108358 0.0213418568943 0.9914388400449 -0.128783512599 0.9914388400449 -0.128783512599 0.0026640680951 0.0213704410703
5.751912704649480 0.0028875051593 0.0213517321935 0.9914326658972 -0.128829322946 0.9914326658972 -0.128829322946 0.0026652864370 0.0213806094706
5.755000000000001 0.0028930516848 0.0213677979875 0.9914226743696 -0.128903404946 0.9914226743696 -0.128903404946 0.0026672297913 0.0213971606444
5.756402718637677 0.0028956003116 0.0213751506831 0.9914181238563 -0.128937123101 0.9914181238563 -0.128937123101 0.0026681029720 0.0214047390542
5.760000000000001 0.0029022212772 0.0213941651339 0.9914064219273 -0.129023768894 0.9914064219273 -0.129023768894 0.0026703130399 0.0214243477853
5.760789849407911 0.0029036919062 0.0213983715751 0.9914038462027 -0.129042828410 0.9914038462027 -0.129042828410 0.0026707924912 0.0214286877776
5.765000000000001 0.0029116380896 0.0214209934496 0.9913900766170 -0.129144643372 0.9913900766170 -0.129144643372 0.0026733110901 0.0214520410280
5.765076454404181 0.0029117841043 0.0214214074562 0.9913898259274 -0.129146495832 0.9913898259274 -0.129146495832 0.0026733562335 0.0214524686281
5.769264837052525 0.0029198810775 0.0214442708057 0.9913760561292 -0.129248181223 0.9913760561292 -0.129248181223 0.0026757953790 0.0214760944952
5.770000000000000 0.0029213226792 0.0214483219937 0.9913736316500 -0.129266071682 0.9913736316500 -0.129266071682 0.0026762164312 0.0214802832371
5.773357247998764 0.0029279870099 0.0214669740036 0.9913625300118 -0.129347939365 0.9913625300118 -0.129347939365 0.0026781110495 0.0214995781786
5.775000000000000 0.0029312979852 0.0214761943390 0.9913570794510 -0.129388102132 0.9913570794510 -0.129388102132 0.0026790206825 0.0215091222331
5.777355886317907 0.0029361060996 0.0214895293372 0.9913492408819 -0.129445823998 0.9913492408819 -0.129445823998 0.0026803043087 0.0215229323961
5.780000000000000 0.0029415896845 0.0215046592461 0.9913404115399 -0.129510788784 0.9913404115399 -0.129510788784 0.0026817144644 0.0215386115322
5.781262900695827 0.0029442425612 0.0215119490093 0.9913361821465 -0.129541887847 0.9913361821465 -0.129541887847 0.0026823761623 0.0215461697909
5.785000000000000 0.0029522266129 0.0215337714594 0.9913236183926 -0.129634192337 0.9913236183926 -0.129634192337 0.0026842872446 0.0215688112219
5.785080390583873 0.0029524006275 0.0215342451447 0.9913233473103 -0.129636182654 0.9913233473103 -0.129636182654 0.0026843275586 0.0215693029391
5.788810407327010 0.0029605845518 0.0215564297980 0.9913107299736 -0.129728759204 0.9913107299736 -0.129728759204 0.0026861593881 0.0215923443575
5.790000000000000 0.0029632412662 0.0215635926572 0.9913066892747 -0.129758381181 0.9913066892747 -0.129758381181 0.0026867271561 0.0215997890029
5.792454955266133 0.0029687986096 0.0215785149601 0.9912983238298 -0.129819667353 0.9912983238298 -0.129819667353 0.0026878724847 0.0216153065103
5.795000000000000 0.0029746704007 0.0215941925865 0.9912896120431 -0.129883432653 0.9912896120431 -0.129883432653 0.0026890207788 0.0216316214370
5.796015992815090 0.0029770471010 0.0216005125656 0.9912861226626 -0.129908956060 0.9912861226626 -0.129908956060 0.0026894676248 0.0216382018169
5.799495433513062 0.0029853343527 0.0216224344994 0.9912741203439 -0.129996673406 0.9912741203439 -0.129996673406 0.0026909455281 0.0216610426591
5.800000000000001 0.0029865557554 0.0216256504293 0.9912723729061 -0.130009434558 0.9912723729061 -0.130009434558 0.0026911528775 0.0216643954473
5.802895147052798 0.0029936647204 0.0216442926039 0.9912623108316 -0.130082866630 0.9912623108316 -0.130082866630 0.0026923068578 0.0216838413880
5.805000000000001 0.0029989449257 0.0216580564564 0.9912549561341 -0.130136487001 0.9912549561341 -0.130136487001 0.0026931060845 0.0216982101350
5.806216960285310 0.0030020425903 0.0216660986857 0.9912506881666 -0.130167582144 0.9912506881666 -0.130167582144 0.0026935522202 0.0217066103311
5.809462658201539 0.0030104723823 0.0216878645222 0.9912392464709 -0.130250865569 0.9912392464709 -0.130250865569 0.0026946821654 0.0217293617999
5.810000000000000 0.0030118924288 0.0216915140406 0.9912373437061 -0.130264704618 0.9912373437061 -0.130264704618 0.0026948605132 0.0217331789917
5.812633984891523 0.0030189585514 0.0217096018687 0.9912279799446 -0.130332761752 0.9912279799446 -0.130332761752 0.0026956971870 0.0217521080963
5.815000000000000 0.0030254610094 0.0217261421267 0.9912195148767 -0.130394219321 0.9912195148767 -0.130394219321 0.0026963932848 0.0217694326125
5.815732644481598 0.0030275055902 0.0217313224647 0.9912168828644 -0.130413314795 0.9912168828644 -0.130413314795 0.0026965977222 0.0217748615203
5.818760302050111 0.0030361180317 0.0217530380410 0.9912059495802 -0.130492568079 0.9912059495802 -0.130492568079 0.0026973841521 0.0217976343765
5.820000000000000 0.0030397232535 0.0217620782805 0.9912014456401 -0.130525183677 0.9912014456401 -0.130525183677 0.0026976779438 0.0218071220466
5.821718584522166 0.0030448004508 0.0217747603260 0.9911951745133 -0.130570564286 0.9911951745133 -0.130570564286 0.0026980568014 0.0218204389812
5.824609081543848 0.0030535574673 0.0217965010526 0.9911845521541 -0.130647345421 0.9911845521541 -0.130647345421 0.0026986159385 0.0218432876698
5.825000000000000 0.0030547635969 0.0217994824846 0.9911831080632 -0.130657775125 0.9911831080632 -0.130657775125 0.0026986837313 0.0218464229685
5.827433346336436 0.0030623937483 0.0218182719648 0.9911740770591 -0.130722952839 0.9911740770591 -0.130722952839 0.0026990617757 0.0218661928033
5.830000000000000 0.0030706808465 0.0218385419013 0.9911644694478 -0.130792201252 0.9911644694478 -0.130792201252 0.0026993746731 0.0218875409120
5.830192896531028 0.0030713140101 0.0218400848241 0.9911637438491 -0.130797427266 0.9911637438491 -0.130797427266 0.0026993944687 0.0218891667756
